!  American Technical Ceramics  Date:   4/26/2005
!  One Norden Lane
!  Huntington Station,  NY.   11746-2102
!  Tel:  (631) 622-4700               Fax:  (631) 622-4748
!  Part Number  600S0R3         Mounting Orientation: Horizontal
!  Description: Ultra Low ESR Microwave capacitors
!  Application: Coupling, Bypass, Tuning, DC Block
!               Filters, Matching
# GHZ S DB R 50
! Freq   |S11|   S11 Ph  |S21|   S21 Ph  |S12|   S12 Ph  |S22|   S22 Ph
   0.000   0.00    0.00	  -999.00  90.00  -999.00  90.00    0.00    0.00
   0.400   -0.05   -5.16  -22.84   84.30  -22.83   84.21   -0.03   -5.65
   0.482   -0.02   -6.31  -21.19   82.63  -21.23   82.01   -0.14   -7.38
   0.563   -0.01   -6.99  -19.83   81.72  -19.89   80.77   -0.17   -9.01
   0.645   -0.07   -7.69  -18.68   80.86  -18.70   79.84   -0.11  -10.19
   0.726   -0.16   -9.05  -17.73   79.72  -17.69   78.83   -0.10  -11.06
   0.808   -0.07   -9.99  -16.76   78.63  -16.77   77.88   -0.15  -12.19
   0.889   -0.20  -11.17  -16.01   77.71  -15.95   76.98   -0.13  -12.99
   0.971   -0.08  -12.23  -15.22   76.37  -15.28   75.77   -0.29  -14.43
   1.052   -0.17  -13.08  -14.55   75.50  -14.56   74.61   -0.24  -15.64
   1.134   -0.23  -13.86  -13.94   74.68  -13.96   73.63   -0.27  -16.75
   1.215   -0.29  -15.85  -13.41   73.12  -13.38   72.35   -0.29  -17.61
   1.297   -0.23  -16.52  -12.79   72.26  -12.81   71.47   -0.31  -18.76
   1.378   -0.30  -17.64  -12.34   71.30  -12.35   70.71   -0.38  -19.36
   1.460   -0.29  -18.73  -11.84   70.06  -11.90   69.28   -0.46  -20.93
   1.541   -0.35  -19.60  -11.37   69.31  -11.38   68.31   -0.38  -21.84
   1.623   -0.42  -20.53  -11.00   68.40  -11.03   67.53   -0.47  -22.65
   1.704   -0.50  -22.47  -10.64   67.06  -10.61   66.24   -0.47  -23.79
   1.786   -0.43  -23.08  -10.19   66.12  -10.23   65.42   -0.55  -24.61
   1.867   -0.54  -24.05   -9.88   65.27   -9.91   64.47   -0.59  -25.47
   1.949   -0.57  -25.26   -9.51   64.05   -9.56   62.96   -0.62  -26.97
   2.030   -0.60  -26.62   -9.19   62.96   -9.19   62.33   -0.63  -27.30
   2.112   -0.67  -27.52   -8.90   62.07   -8.93   61.14   -0.71  -28.57
   2.193   -0.69  -28.89   -8.60   60.83   -8.61   60.16   -0.74  -29.37
   2.275   -0.74  -29.74   -8.30   60.02   -8.32   59.32   -0.79  -30.20
   2.356   -0.82  -30.69   -8.05   59.04   -8.11   58.14   -0.88  -31.45
   2.438   -0.90  -32.21   -7.82   57.82   -7.82   57.01   -0.90  -32.26
   2.519   -0.93  -33.34   -7.57   56.66   -7.57   55.98   -0.94  -33.17
   2.601   -0.95  -34.39   -7.31   55.48   -7.35   55.06   -1.03  -34.13
   2.682   -1.03  -35.39   -7.08   54.75   -7.09   53.99   -1.02  -35.00
   2.764   -1.08  -36.35   -6.86   53.64   -6.91   53.24   -1.14  -35.76
   2.845   -1.14  -37.62   -6.65   52.62   -6.69   52.05   -1.19  -36.81
   2.927   -1.21  -38.69   -6.43   51.60   -6.49   51.03   -1.25  -37.67
   3.008   -1.29  -40.12   -6.27   50.36   -6.25   49.96   -1.30  -38.52
   3.090   -1.29  -40.50   -6.09   49.65   -6.15   49.44   -1.33  -39.59
   3.171   -1.36  -41.36   -5.93   48.96   -5.96   48.41   -1.36  -40.22
   3.253   -1.43  -42.24   -5.80   47.87   -5.82   47.80   -1.46  -41.08
   3.334   -1.47  -43.16   -5.61   47.04   -5.67   46.84   -1.48  -42.11
   3.416   -1.54  -43.96   -5.47   46.32   -5.50   45.98   -1.53  -42.86
   3.497   -1.59  -44.80   -5.37   45.40   -5.33   45.33   -1.61  -43.57
   3.579   -1.66  -45.71   -5.17   44.22   -5.24   44.32   -1.66  -44.83
   3.660   -1.70  -46.46   -5.06   43.70   -5.04   43.55   -1.69  -45.35
   3.742   -1.79  -47.29   -4.95   42.54   -4.98   42.80   -1.81  -46.36
   3.823   -1.82  -48.35   -4.80   41.59   -4.82   41.74   -1.83  -47.45
   3.905   -1.86  -49.02   -4.66   41.07   -4.67   41.03   -1.86  -48.09
   3.986   -1.95  -49.72   -4.59   40.19   -4.57   40.44   -1.97  -48.87
   4.068   -2.00  -50.70   -4.45   39.18   -4.46   39.48   -2.02  -49.96
   4.149   -2.05  -51.19   -4.34   38.81   -4.34   38.91   -2.09  -50.35
   4.231   -2.18  -52.17   -4.29   37.56   -4.28   37.99   -2.23  -51.51
   4.312   -2.17  -53.21   -4.10   36.73   -4.11   36.97   -2.21  -52.48
   4.394   -2.23  -53.65   -4.00   36.25   -4.00   36.51   -2.26  -52.85
   4.475   -2.31  -54.30   -3.95   35.38   -3.92   35.55   -2.38  -53.70
   4.557   -2.36  -55.36   -3.84   34.35   -3.83   34.82   -2.40  -54.70
   4.638   -2.40  -56.00   -3.75   34.31   -3.74   34.46   -2.53  -54.80
   4.720   -2.57  -57.17   -3.70   32.77   -3.68   33.12   -2.60  -55.99
   4.801   -2.55  -57.93   -3.54   32.04   -3.51   32.44   -2.58  -56.73
   4.883   -2.64  -58.42   -3.46   31.59   -3.48   32.08   -2.66  -56.92
   4.964   -2.70  -59.11   -3.43   30.87   -3.37   30.96   -2.79  -58.08
   5.046   -2.80  -60.12   -3.32   29.77   -3.29   30.43   -2.77  -58.76
   5.127   -2.83  -60.65   -3.28   29.45   -3.26   29.63   -2.92  -59.22
   5.209   -2.94  -61.70   -3.20   28.22   -3.15   28.52   -2.97  -60.40
   5.290   -2.98  -62.29   -3.08   27.61   -3.03   28.17   -2.96  -60.91
   5.372   -3.05  -63.09   -3.02   27.24   -3.04   27.53   -3.11  -60.92
   5.453   -3.16  -63.49   -3.01   26.37   -2.93   26.64   -3.16  -62.40
   5.535   -3.25  -64.66   -2.91   25.60   -2.89   26.11   -3.21  -62.51
   5.616   -3.27  -65.44   -2.84   24.94   -2.84   25.07   -3.34  -63.30
   5.698   -3.38  -66.05   -2.79   24.01   -2.72   24.33   -3.33  -64.32
   5.779   -3.41  -66.88   -2.68   23.63   -2.67   23.90   -3.41  -64.36
   5.861   -3.54  -67.36   -2.67   22.94   -2.62   23.19   -3.49  -65.27
   5.942   -3.64  -67.96   -2.62   22.24   -2.54   22.44   -3.56  -66.02
   6.024   -3.75  -69.69   -2.54   21.18   -2.53   21.74   -3.63  -66.03
   6.105   -3.73  -69.60   -2.49   20.75   -2.44   20.49   -3.76  -67.44
   6.187   -3.86  -70.76   -2.42   19.80   -2.39   20.14   -3.76  -67.34
   6.268   -3.88  -70.68   -2.39   19.55   -2.34   19.31   -3.91  -68.29
   6.350   -4.03  -71.56   -2.38   18.72   -2.32   18.83   -3.91  -68.81
   6.431   -4.17  -72.63   -2.34   17.85   -2.32   18.30   -4.00  -68.74
   6.513   -4.15  -73.65   -2.25   17.15   -2.27   17.25   -4.11  -69.84
   6.594   -4.19  -73.89   -2.20   16.77   -2.19   16.74   -4.17  -70.18
   6.676   -4.30  -74.54   -2.16   16.15   -2.15   16.21   -4.25  -70.78
   6.757   -4.32  -74.66   -2.12   15.87   -2.10   15.47   -4.36  -71.83
   6.839   -4.60  -76.09   -2.14   14.70   -2.08   15.33   -4.29  -71.49
   6.920   -4.49  -77.17   -2.06   14.20   -2.10   14.26   -4.55  -72.58
   7.002   -4.57  -78.13   -1.97   13.57   -2.01   13.88   -4.58  -72.90
   7.083   -4.63  -77.80   -1.92   13.51   -1.93   13.19   -4.69  -73.82
   7.165   -4.70  -78.40   -1.86   12.86   -1.86   12.74   -4.72  -74.18
   7.246   -4.90  -78.98   -1.86   12.11   -1.79   12.19   -4.69  -74.93
   7.328   -4.96  -80.58   -1.81   11.13   -1.81   11.57   -4.85  -74.75
   7.409   -4.90  -81.40   -1.73   10.44   -1.80   10.73   -5.06  -75.37
   7.491   -5.01  -81.12   -1.69   10.10   -1.71    9.85   -5.09  -76.90
   7.572   -5.05  -81.41   -1.64    9.64   -1.69    9.31   -5.22  -77.38
   7.654   -5.32  -82.12   -1.67    8.92   -1.59    8.84   -5.11  -77.98
   7.735   -5.26  -82.77   -1.58    8.41   -1.58    8.37   -5.33  -78.11
   7.817   -5.36  -84.50   -1.56    7.25   -1.56    7.72   -5.41  -77.75
   7.898   -5.24  -84.31   -1.48    6.96   -1.57    6.62   -5.65  -79.50
   7.980   -5.45  -84.95   -1.47    6.45   -1.50    6.28   -5.60  -80.09
   8.061   -5.67  -85.24   -1.48    6.03   -1.46    5.46   -5.64  -81.44
   8.143   -5.73  -86.92   -1.42    5.03   -1.41    5.11   -5.72  -80.96
   8.224   -5.79  -87.26   -1.38    4.61   -1.41    4.60   -5.89  -81.50
   8.306   -5.87  -87.55   -1.35    4.06   -1.39    3.79   -6.01  -82.54
   8.387   -5.95  -88.32   -1.31    3.38   -1.35    3.21   -6.10  -82.93
   8.469   -6.12  -88.30   -1.30    3.04   -1.31    2.56   -6.17  -84.02
   8.550   -6.20  -89.47   -1.27    2.22   -1.27    1.94   -6.21  -84.33
   8.632   -6.30  -90.52   -1.24    1.57   -1.22    1.56   -6.27  -84.31
   8.713   -6.28  -90.45   -1.16    1.11   -1.22    0.73   -6.48  -85.82
   8.795   -6.56  -91.44   -1.19    0.49   -1.19    0.19   -6.55  -86.66
   8.876   -6.57  -91.47   -1.15   -0.01   -1.17   -0.40   -6.69  -86.98
   8.958   -6.69  -92.19   -1.13   -0.51   -1.16   -0.85   -6.82  -87.37
   9.039   -6.78  -92.62   -1.10   -1.15   -1.09   -1.53   -6.85  -87.66
   9.121   -6.84  -93.19   -1.07   -1.66   -1.09   -1.86   -7.00  -87.77
   9.202   -6.95  -93.96   -1.04   -2.24   -1.05   -2.56   -7.05  -88.61
   9.284   -7.03  -94.30   -1.02   -2.74   -1.03   -2.99   -7.10  -88.84
   9.365   -7.10  -95.17   -0.98   -3.37   -0.99   -3.55   -7.23  -89.29
   9.447   -7.27  -95.35   -0.96   -3.90   -0.97   -4.27   -7.32  -90.21
   9.528   -7.41  -95.72   -0.94   -4.40   -0.93   -4.79   -7.34  -90.50
   9.610   -7.47  -96.45   -0.93   -5.01   -0.92   -5.24   -7.41  -90.73
   9.691   -7.58  -97.10   -0.89   -5.65   -0.88   -5.87   -7.57  -91.48
   9.773   -7.66  -97.32   -0.86   -6.18   -0.87   -6.29   -7.64  -91.81
   9.854   -7.73  -97.66   -0.82   -6.84   -0.85   -6.97   -7.76  -92.59
   9.936   -7.83  -97.50   -0.81   -7.13   -0.82   -7.56   -7.74  -93.19
  10.017   -7.96  -98.81   -0.83   -7.81   -0.80   -8.20   -7.79  -93.65
  10.099   -7.98  -99.47   -0.81   -8.49   -0.78   -8.52   -7.94  -94.04
  10.180   -8.01  -99.85   -0.75   -9.04   -0.75   -9.07   -8.04  -95.19
  10.262   -8.16 -100.10   -0.74   -9.35   -0.76   -9.44   -8.14  -95.80
  10.343   -8.26 -100.75   -0.72  -10.00   -0.73  -10.14   -8.24  -96.77
  10.425   -8.39 -101.16   -0.70  -10.36   -0.71  -10.69   -8.32  -97.14
  10.506   -8.47 -102.01   -0.72  -10.96   -0.68  -11.04   -8.46  -97.25
  10.588   -8.54 -102.59   -0.68  -11.70   -0.67  -11.70   -8.61  -98.14
  10.669   -8.61 -102.65   -0.62  -12.11   -0.63  -11.96   -8.68  -98.48
  10.751   -8.81 -102.80   -0.63  -12.43   -0.65  -12.64   -8.74  -99.21
  10.832   -8.85 -103.47   -0.62  -13.18   -0.61  -13.26   -8.83  -99.60
  10.914   -8.96 -103.94   -0.61  -13.51   -0.59  -13.61   -8.91  -99.98
  10.995   -9.00 -104.14   -0.59  -14.15   -0.60  -14.08   -9.04 -100.94
  11.077   -9.08 -104.84   -0.57  -14.71   -0.54  -14.69   -9.11 -101.47
  11.158   -9.20 -104.97   -0.54  -15.05   -0.56  -15.10   -9.18 -102.10
  11.240   -9.30 -105.66   -0.56  -15.63   -0.55  -15.74   -9.29 -102.44
  11.321   -9.36 -106.23   -0.53  -16.17   -0.50  -16.20   -9.37 -102.96
  11.403   -9.43 -106.22   -0.52  -16.67   -0.52  -16.57   -9.47 -103.74
  11.484   -9.53 -106.88   -0.52  -17.22   -0.49  -17.15   -9.57 -104.07
  11.566   -9.62 -107.08   -0.48  -17.68   -0.50  -17.64   -9.63 -105.07
  11.647   -9.70 -107.68   -0.49  -18.17   -0.48  -18.13   -9.74 -105.15
  11.729   -9.82 -108.48   -0.50  -18.59   -0.48  -18.71   -9.83 -105.64
  11.810   -9.83 -108.46   -0.47  -19.27   -0.45  -19.02   -9.97 -106.53
  11.892  -10.02 -108.96   -0.46  -19.45   -0.47  -19.56   -9.98 -106.72
  11.973  -10.02 -109.44   -0.46  -20.11   -0.44  -20.05  -10.12 -107.37
  12.055  -10.14 -109.81   -0.45  -20.62   -0.45  -20.54  -10.20 -108.20
  12.136  -10.24 -110.50   -0.44  -20.93   -0.43  -21.08  -10.26 -108.44
  12.218  -10.25 -110.83   -0.45  -21.59   -0.41  -21.40  -10.43 -109.20
  12.299  -10.39 -111.27   -0.41  -22.05   -0.41  -21.95  -10.44 -109.90
  12.381  -10.50 -112.10   -0.40  -22.32   -0.41  -22.45  -10.55 -110.02
  12.462  -10.50 -112.39   -0.44  -22.89   -0.39  -22.84  -10.72 -110.79
  12.544  -10.69 -113.12   -0.40  -23.46   -0.41  -23.49  -10.74 -111.39
  12.625  -10.69 -113.54   -0.39  -23.94   -0.36  -23.85  -10.85 -111.90
  12.707  -10.85 -113.80   -0.40  -24.32   -0.38  -24.19  -10.98 -112.55
  12.788  -11.00 -114.74   -0.36  -24.94   -0.40  -24.85  -10.95 -113.23
  12.870  -11.01 -115.31   -0.38  -25.06   -0.36  -25.24  -11.19 -112.93
  12.951  -11.16 -115.55   -0.39  -25.68   -0.39  -25.59  -11.23 -114.00
  13.033  -11.23 -115.91   -0.37  -26.36   -0.36  -26.24  -11.31 -114.49
  13.114  -11.32 -116.60   -0.35  -26.53   -0.36  -26.56  -11.41 -114.66
  13.196  -11.46 -116.52   -0.35  -27.21   -0.38  -26.86  -11.45 -115.62
  13.277  -11.52 -117.87   -0.32  -27.44   -0.35  -27.56  -11.57 -115.32
  13.359  -11.57 -118.03   -0.34  -27.82   -0.34  -27.80  -11.68 -116.08
  13.440  -11.77 -118.49   -0.37  -28.50   -0.37  -28.34  -11.82 -116.77
  13.522  -11.85 -119.61   -0.29  -28.94   -0.31  -28.89  -11.78 -117.07
  13.603  -11.99 -119.33   -0.30  -29.36   -0.33  -29.20  -11.87 -117.53
  13.685  -12.11 -120.22   -0.31  -29.81   -0.32  -29.90  -12.04 -118.41
  13.766  -12.20 -120.03   -0.27  -30.17   -0.31  -30.17  -12.11 -118.70
  13.848  -12.26 -120.40   -0.30  -30.54   -0.29  -30.47  -12.31 -119.18
  13.929  -12.42 -121.21   -0.30  -31.25   -0.32  -31.21  -12.39 -119.72
  14.011  -12.53 -121.54   -0.25  -31.66   -0.28  -31.52  -12.46 -120.08
  14.092  -12.57 -122.60   -0.25  -31.90   -0.29  -32.02  -12.62 -119.84
  14.174  -12.68 -122.31   -0.26  -32.63   -0.24  -32.53  -12.71 -121.44
  14.255  -12.83 -123.26   -0.25  -33.08   -0.27  -33.07  -12.83 -121.76
  14.337  -12.85 -123.90   -0.27  -33.60   -0.28  -33.63  -13.06 -122.40
  14.418  -12.99 -124.05   -0.29  -34.14   -0.29  -34.07  -13.26 -123.05
  14.500  -13.10 -124.78   -0.28  -34.45   -0.32  -34.31  -13.42 -122.09
  14.581  -13.14 -125.88   -0.29  -34.62   -0.30  -34.71  -13.65 -121.65
  14.663  -13.33 -126.38   -0.28  -35.04   -0.29  -35.00  -13.56 -122.11
  14.744  -13.57 -127.85   -0.25  -35.51   -0.29  -35.48  -13.64 -122.02
  14.826  -13.69 -128.40   -0.25  -35.97   -0.28  -36.02  -13.74 -122.91
  14.907  -13.97 -128.16   -0.25  -36.35   -0.28  -36.36  -13.83 -123.85
  14.989  -14.18 -128.16   -0.25  -36.82   -0.28  -36.86  -13.89 -124.82
  15.070  -14.17 -127.71   -0.26  -37.19   -0.28  -37.30  -14.17 -125.63
  15.152  -14.33 -128.63   -0.25  -37.68   -0.28  -37.67  -14.35 -126.16
  15.233  -14.36 -129.61   -0.23  -38.11   -0.27  -38.08  -14.43 -125.97
  15.315  -14.50 -130.20   -0.24  -38.49   -0.26  -38.54  -14.68 -127.24
  15.396  -14.71 -131.16   -0.23  -39.03   -0.25  -39.05  -14.74 -127.79
  15.478  -14.97 -131.80   -0.24  -39.47   -0.27  -39.52  -14.95 -128.42
  15.559  -15.07 -133.04   -0.24  -39.97   -0.26  -39.99  -15.14 -128.98
  15.641  -15.34 -133.23   -0.26  -40.35   -0.26  -40.28  -15.37 -129.51
  15.722  -15.50 -134.49   -0.24  -40.77   -0.27  -40.85  -15.69 -130.32
  15.804  -15.80 -134.78   -0.25  -41.21   -0.28  -41.21  -15.85 -130.76
  15.885  -16.10 -135.72   -0.26  -41.61   -0.27  -41.71  -16.08 -131.87
  15.967  -16.36 -137.09   -0.25  -42.08   -0.28  -41.91  -16.28 -131.07
  16.048  -16.60 -137.50   -0.25  -42.44   -0.27  -42.45  -16.64 -132.13
  16.130  -16.88 -138.08   -0.24  -42.87   -0.26  -42.82  -16.82 -132.63
  16.211  -17.22 -139.24   -0.25  -43.32   -0.28  -43.34  -17.15 -133.12
  16.293  -17.49 -139.67   -0.26  -43.67   -0.27  -43.67  -17.43 -133.81
  16.374  -17.89 -140.01   -0.25  -44.10   -0.28  -43.98  -17.77 -134.01
  16.456  -18.22 -141.29   -0.26  -44.49   -0.27  -44.36  -18.06 -133.91
  16.537  -18.55 -141.64   -0.25  -44.91   -0.27  -44.82  -18.43 -133.94
  16.619  -18.93 -142.73   -0.26  -45.35   -0.28  -45.18  -18.74 -134.27
  16.700  -19.40 -142.92   -0.27  -45.79   -0.28  -45.74  -19.05 -134.98
  16.782  -19.74 -144.08   -0.27  -46.12   -0.28  -45.99  -19.56 -135.38
  16.863  -20.25 -143.75   -0.27  -46.49   -0.29  -46.45  -19.92 -136.04
  16.945  -20.80 -144.84   -0.28  -46.92   -0.29  -46.74  -20.52 -136.43
  17.026  -21.19 -145.10   -0.27  -47.26   -0.29  -47.07  -20.97 -134.37
  17.108  -21.76 -144.04   -0.26  -47.64   -0.28  -47.51  -21.69 -134.35
  17.189  -22.08 -144.28   -0.25  -48.12   -0.26  -47.76  -22.01 -133.84
  17.271  -22.79 -142.54   -0.26  -48.54   -0.27  -48.29  -22.63 -132.01
  17.352  -23.37 -142.76   -0.27  -49.01   -0.28  -48.76  -23.26 -131.88
  17.434  -23.84 -141.29   -0.27  -49.42   -0.27  -49.09  -23.76 -127.17
  17.515  -24.39 -139.04   -0.28  -49.93   -0.29  -49.69  -24.60 -125.64
  17.597  -24.47 -134.68   -0.30  -50.33   -0.31  -50.09  -24.75 -119.96
  17.678  -24.63 -131.08   -0.34  -50.63   -0.35  -50.32  -24.93 -114.62
  17.760  -24.24 -130.46   -0.36  -50.67   -0.37  -50.43  -24.34 -112.85
  17.841  -24.15 -134.92   -0.34  -50.73   -0.34  -50.53  -24.04 -112.65
  17.923  -24.12 -140.41   -0.30  -51.02   -0.32  -50.70  -24.29 -117.89
  18.004  -25.03 -142.95   -0.26  -51.36   -0.26  -51.09  -24.87 -119.16
  18.086  -26.15 -147.69   -0.24  -51.84   -0.26  -51.56  -25.97 -121.53
  18.167  -27.02 -146.48   -0.23  -52.40   -0.22  -52.03  -26.65 -118.30
  18.249  -28.29 -144.69   -0.24  -52.85   -0.24  -52.58  -27.92 -116.20
  18.330  -28.65 -143.00   -0.25  -53.26   -0.25  -53.05  -28.20 -111.42
  18.412  -29.51 -141.79   -0.25  -53.66   -0.25  -53.36  -28.86 -106.60
  18.493  -29.95 -142.37   -0.24  -53.91   -0.25  -53.63  -28.91 -107.15
  18.575  -31.01 -143.22   -0.24  -54.39   -0.23  -53.99  -29.39 -100.91
  18.656  -31.77 -146.47   -0.24  -54.77   -0.22  -54.40  -29.95 -100.11
  18.738  -32.54 -143.31   -0.23  -55.12   -0.21  -54.83  -29.96  -96.13
  18.819  -33.25 -147.90   -0.23  -55.47   -0.21  -55.20  -30.65  -97.47
  18.901  -33.99 -148.07   -0.20  -55.78   -0.19  -55.51  -30.68  -96.39
  18.982  -35.87 -156.35   -0.19  -56.17   -0.18  -55.94  -32.05  -95.22
  19.064  -37.52 -161.21   -0.17  -56.59   -0.17  -56.27  -32.74  -94.49
  19.145  -40.88 -170.21   -0.16  -57.04   -0.14  -56.76  -34.41  -88.02
  19.227  -43.84  176.92   -0.14  -57.49   -0.12  -57.19  -35.48  -88.62
  19.308  -48.48  142.13   -0.13  -57.90   -0.11  -57.71  -36.41  -74.73
  19.390  -49.20  107.27   -0.13  -58.45   -0.11  -58.20  -38.66  -70.02
  19.471  -46.68   59.59   -0.12  -58.88   -0.10  -58.67  -38.51  -55.42
  19.553  -43.49   55.06   -0.13  -59.31   -0.11  -59.16  -39.62  -33.80
  19.634  -41.20   34.60   -0.13  -59.74   -0.11  -59.54  -38.30  -26.82
  19.716  -38.42   36.64   -0.13  -60.12   -0.11  -59.88  -36.69   -7.47
  19.797  -37.51   30.39   -0.11  -60.57   -0.09  -60.36  -36.22   -6.65
  19.879  -35.64   31.10   -0.11  -61.02   -0.09  -60.74  -34.46    2.07
  19.960  -35.04   28.64   -0.11  -61.41   -0.08  -61.24  -34.10    5.34
  20.042  -33.70   25.20   -0.09  -61.90   -0.06  -61.76  -32.78    4.64
  20.123  -33.81   25.45   -0.09  -62.39   -0.06  -62.09  -32.30   11.35
  20.205  -32.98   23.58   -0.08  -62.95   -0.05  -62.73  -31.64    9.37
  20.286  -32.47   27.61   -0.08  -63.42   -0.05  -63.11  -31.11   14.22
  20.368  -31.96   25.50   -0.06  -63.86   -0.04  -63.51  -30.95   14.66
  20.449  -31.02   29.70   -0.08  -64.31   -0.06  -64.32  -30.28   17.60
  20.531  -30.90   28.53   -0.07  -64.87   -0.01  -64.69  -29.92   17.99
  20.612  -30.05   29.10   -0.07  -65.40   -0.04  -65.10  -29.19   21.07
  20.694  -30.04   28.65   -0.06  -65.92   -0.05  -65.62  -29.17   24.02
  20.775  -29.39   27.78   -0.07  -66.37   -0.03  -66.24  -28.45   24.39
  20.857  -29.19   30.81   -0.09  -66.78   -0.07  -66.63  -28.25   26.21
  20.938  -28.65   30.70   -0.10  -67.40   -0.07  -67.45  -27.70   25.25
  21.020  -28.26   32.07   -0.11  -67.90   -0.06  -67.67  -27.19   28.88
  21.101  -27.45   31.63   -0.11  -68.51   -0.10  -68.32  -27.16   28.60
  21.183  -26.88   33.64   -0.15  -68.91   -0.10  -68.89  -26.63   31.01
  21.264  -26.27   29.42   -0.16  -69.40   -0.13  -69.24  -26.52   30.96
  21.346  -25.84   28.04   -0.22  -69.83   -0.18  -69.74  -25.69   31.90
  21.427  -26.12   25.38   -0.24  -70.12   -0.19  -70.07  -25.46   33.74
  21.509  -25.74   24.43   -0.25  -70.45   -0.21  -70.31  -24.77   34.75
  21.590  -25.90   28.71   -0.24  -70.69   -0.21  -70.63  -24.29   35.90
  21.672  -25.10   28.59   -0.23  -71.08   -0.20  -70.91  -23.77   33.08
