!  American Technical Ceramics  Date:   10/26/00
!  One Norden Lane
!  Huntington Station,  NY.   11746-2102
!  Tel:  (631) 622-4700               Fax:  (631) 622-4748
!  Part Number  600S0R1BW      Mounting Orientation: Horizontal
!  Description: Ultra Low ESR Microwave capacitors
!  Application: Coupling, Bypass, Tuning, DC Block
!               Filters, Matching
# GHZ S DB R 50
! Freq   |S11|   S11 Ph  |S21|   S21 Ph  |S12|   S12 Ph  |S22|   S22 Ph
   0.000   0.00    0.00	  -999.00  90.00  -999.00  90.00    0.00    0.00
   0.400   -0.02   -3.35  -29.54   86.68  -29.54   86.41   -0.01   -2.97
   0.482   -0.02   -4.35  -27.91   85.41  -27.92   85.07   -0.07   -3.62
   0.563    0.02   -4.71  -26.55   84.85  -26.58   84.20   -0.10   -4.67
   0.645   -0.01   -5.00  -25.36   84.47  -25.37   83.70   -0.03   -5.42
   0.726   -0.11   -5.69  -24.39   83.90  -24.36   83.25   -0.01   -5.88
   0.808    0.01   -6.65  -23.43   82.95  -23.42   82.48   -0.04   -6.54
   0.889   -0.11   -7.01  -22.63   82.71  -22.57   82.09    0.02   -7.07
   0.971    0.00   -8.36  -21.85   81.50  -21.88   81.53   -0.13   -7.39
   1.052   -0.05   -8.51  -21.15   81.12  -21.16   80.69   -0.08   -8.57
   1.134   -0.03   -8.86  -20.49   80.70  -20.51   80.31   -0.09   -9.05
   1.215   -0.17   -9.87  -19.98   79.96  -19.94   79.43   -0.08   -9.70
   1.297   -0.07  -10.79  -19.34   79.02  -19.35   78.68   -0.10  -10.54
   1.378   -0.10  -11.21  -18.84   78.71  -18.79   78.45   -0.06  -10.68
   1.460   -0.10  -12.17  -18.36   77.73  -18.37   77.70   -0.18  -11.34
   1.541   -0.06  -12.57  -17.83   77.08  -17.84   76.66   -0.12  -12.69
   1.623   -0.07  -12.95  -17.39   76.75  -17.40   76.45   -0.12  -12.81
   1.704   -0.18  -13.53  -17.02   76.18  -17.01   75.50   -0.13  -13.81
   1.786   -0.12  -14.85  -16.60   75.05  -16.58   74.84   -0.15  -14.26
   1.867   -0.13  -14.98  -16.20   74.82  -16.18   74.43   -0.13  -14.82
   1.949   -0.14  -15.79  -15.86   73.90  -15.89   73.67   -0.23  -15.63
   2.030   -0.18  -16.61  -15.50   73.28  -15.46   72.75   -0.14  -16.46
   2.112   -0.16  -17.15  -15.15   72.54  -15.16   72.30   -0.21  -17.05
   2.193   -0.22  -17.89  -14.85   71.89  -14.84   71.40   -0.21  -17.81
   2.275   -0.19  -18.73  -14.51   71.04  -14.49   70.66   -0.20  -18.50
   2.356   -0.17  -19.28  -14.20   70.35  -14.20   70.28   -0.25  -18.94
   2.438   -0.24  -19.63  -13.92   69.83  -13.94   69.34   -0.26  -19.87
   2.519   -0.25  -20.47  -13.66   69.02  -13.69   68.57   -0.29  -20.63
   2.601   -0.29  -21.36  -13.44   68.36  -13.40   67.97   -0.27  -20.98
   2.682   -0.27  -21.94  -13.14   67.46  -13.17   67.09   -0.33  -22.07
   2.764   -0.28  -22.75  -12.90   66.91  -12.87   66.51   -0.29  -22.46
   2.845   -0.30  -23.20  -12.65   66.20  -12.67   65.81   -0.34  -23.26
   2.927   -0.30  -24.06  -12.42   65.44  -12.42   65.20   -0.35  -23.75
   3.008   -0.34  -23.73  -12.12   64.84  -12.15   64.16   -0.37  -25.86
   3.090   -0.37  -24.82  -11.96   64.13  -11.92   63.72   -0.38  -26.12
   3.171   -0.37  -25.48  -11.73   63.23  -11.76   62.89   -0.43  -26.96
   3.253   -0.39  -26.17  -11.54   62.74  -11.53   62.12   -0.39  -27.41
   3.334   -0.41  -26.93  -11.38   62.08  -11.37   61.72   -0.45  -27.78
   3.416   -0.41  -27.72  -11.18   61.38  -11.19   61.14   -0.47  -28.52
   3.497   -0.43  -28.36  -10.96   60.93  -11.00   60.26   -0.44  -29.27
   3.579   -0.46  -29.09  -10.84   60.45  -10.80   59.97   -0.46  -29.44
   3.660   -0.47  -29.97  -10.63   59.44  -10.67   59.04   -0.49  -30.53
   3.742   -0.46  -30.59  -10.44   59.12  -10.43   58.51   -0.46  -30.84
   3.823   -0.52  -31.13  -10.32   58.55  -10.32   58.05   -0.53  -31.27
   3.905   -0.54  -32.08  -10.17   57.57  -10.19   57.24   -0.57  -32.18
   3.986   -0.47  -32.78   -9.97   57.03  -10.01   56.45   -0.48  -32.84
   4.068   -0.56  -33.21   -9.86   56.66   -9.85   56.05   -0.57  -33.14
   4.149   -0.58  -34.24   -9.71   55.50   -9.72   55.15   -0.59  -34.18
   4.231   -0.55  -34.64   -9.51   55.36   -9.52   54.67   -0.54  -34.48
   4.312   -0.63  -35.02   -9.46   54.90   -9.46   54.47   -0.65  -34.76
   4.394   -0.64  -35.92   -9.32   53.94   -9.32   53.36   -0.66  -35.57
   4.475   -0.64  -36.71   -9.13   53.18   -9.16   52.85   -0.63  -36.37
   4.557   -0.67  -37.08   -9.03   52.95   -9.04   52.31   -0.68  -36.66
   4.638   -0.71  -38.22   -8.91   51.60   -8.92   51.31   -0.68  -37.94
   4.720   -0.66  -38.52   -8.71   51.43   -8.73   50.98   -0.63  -38.09
   4.801   -0.77  -38.88   -8.67   51.23   -8.71   50.76   -0.75  -38.32
   4.883   -0.79  -39.79   -8.59   50.31   -8.57   49.47   -0.80  -39.58
   4.964   -0.79  -40.45   -8.42   49.28   -8.44   49.22   -0.73  -40.11
   5.046   -0.80  -40.93   -8.32   49.25   -8.35   48.32   -0.82  -40.43
   5.127   -0.83  -41.72   -8.24   48.05   -8.21   47.71   -0.79  -41.54
   5.209   -0.80  -41.97   -8.05   47.74   -8.07   47.46   -0.76  -41.60
   5.290   -0.89  -42.52   -8.00   47.44   -8.07   46.95   -0.88  -41.77
   5.372   -0.89  -43.09   -7.95   46.45   -7.89   45.74   -0.88  -43.35
   5.453   -0.94  -44.00   -7.79   45.39   -7.84   45.39   -0.84  -43.46
   5.535   -0.91  -44.55   -7.71   45.14   -7.76   44.39   -0.92  -44.31
   5.616   -0.94  -44.83   -7.64   44.46   -7.61   44.00   -0.91  -45.07
   5.698   -0.98  -45.48   -7.50   43.95   -7.56   43.91   -0.90  -45.01
   5.779   -1.02  -45.74   -7.48   43.75   -7.50   43.18   -1.02  -45.81
   5.861   -1.06  -46.67   -7.38   42.70   -7.40   42.48   -0.99  -46.57
   5.942   -1.09  -47.24   -7.29   42.09   -7.33   42.08   -1.00  -46.90
   6.024   -1.00  -47.92   -7.13   41.72   -7.23   40.86   -1.08  -47.63
   6.105   -1.10  -47.82   -7.13   41.16   -7.08   40.99   -0.99  -48.19
   6.187   -1.06  -48.83   -6.99   40.79   -7.06   40.23   -1.10  -48.16
   6.268   -1.19  -48.82   -7.01   40.09   -6.98   39.77   -1.11  -49.25
   6.350   -1.21  -49.97   -6.91   39.19   -6.92   39.14   -1.12  -49.50
   6.431   -1.17  -50.88   -6.79   38.55   -6.89   38.30   -1.20  -49.96
   6.513   -1.13  -50.98   -6.69   38.29   -6.71   37.68   -1.16  -50.74
   6.594   -1.19  -51.15   -6.66   38.00   -6.67   37.49   -1.21  -50.98
   6.676   -1.23  -51.79   -6.59   37.36   -6.61   37.02   -1.23  -51.29
   6.757   -1.33  -51.77   -6.60   36.98   -6.54   36.58   -1.24  -52.30
   6.839   -1.35  -53.93   -6.47   35.73   -6.56   36.25   -1.29  -51.69
   6.920   -1.26  -53.94   -6.37   35.46   -6.43   34.75   -1.34  -53.48
   7.002   -1.24  -54.57   -6.25   35.01   -6.36   34.63   -1.35  -53.16
   7.083   -1.30  -54.12   -6.26   34.90   -6.25   34.13   -1.35  -54.31
   7.165   -1.36  -54.83   -6.23   34.33   -6.24   33.81   -1.39  -54.57
   7.246   -1.53  -55.57   -6.28   33.68   -6.25   33.79   -1.40  -54.86
   7.328   -1.47  -56.93   -6.14   33.47   -6.23   33.58   -1.60  -54.51
   7.409   -1.33  -57.31   -5.95   33.07   -6.11   32.63   -1.67  -54.76
   7.491   -1.39  -56.87   -5.90   32.90   -5.93   32.16   -1.53  -55.71
   7.572   -1.37  -57.18   -5.82   32.56   -5.88   31.64   -1.57  -56.32
   7.654   -1.59  -58.00   -5.85   31.74   -5.77   31.66   -1.38  -56.42
   7.735   -1.48  -58.66   -5.71   31.46   -5.75   31.13   -1.55  -56.78
   7.817   -1.58  -60.49   -5.65   30.19   -5.71   30.70   -1.55  -56.57
   7.898   -1.37  -59.90   -5.50   30.27   -5.64   29.42   -1.73  -58.25
   7.980   -1.50  -60.14   -5.48   29.90   -5.54   29.42   -1.63  -58.43
   8.061   -1.63  -60.09   -5.46   29.69   -5.43   28.68   -1.59  -59.99
   8.143   -1.64  -61.93   -5.36   28.44   -5.36   28.54   -1.55  -59.26
   8.224   -1.62  -62.47   -5.29   28.19   -5.35   28.12   -1.70  -59.91
   8.306   -1.60  -62.77   -5.22   27.79   -5.30   27.23   -1.78  -60.82
   8.387   -1.63  -62.98   -5.04   26.23   -5.13   25.87   -1.84  -63.81
   8.469   -1.67  -62.24   -4.99   26.48   -5.06   25.49   -1.87  -64.92
   8.550   -1.76  -62.98   -4.97   25.76   -4.99   25.27   -1.81  -64.99
   8.632   -1.84  -63.60   -4.95   25.39   -4.92   25.20   -1.74  -64.87
   8.713   -1.65  -63.81   -4.81   25.12   -4.94   24.84   -1.97  -65.49
   8.795   -1.78  -63.36   -4.81   25.19   -4.85   24.63   -1.90  -66.09
   8.876   -1.72  -63.74   -4.72   24.83   -4.79   24.34   -1.98  -66.44
   8.958   -1.75  -63.95   -4.68   24.62   -4.74   24.27   -2.03  -66.65
   9.039   -1.79  -64.49   -4.62   24.05   -4.64   23.45   -2.02  -67.31
   9.121   -1.78  -65.15   -4.56   23.67   -4.61   23.42   -2.08  -67.00
   9.202   -1.85  -65.39   -4.52   23.43   -4.57   23.01   -2.08  -67.49
   9.284   -1.93  -65.64   -4.46   23.11   -4.51   22.65   -2.09  -67.75
   9.365   -2.00  -66.29   -4.42   22.63   -4.44   22.40   -2.08  -67.90
   9.447   -2.03  -66.08   -4.35   22.39   -4.43   22.01   -2.16  -68.74
   9.528   -2.07  -66.13   -4.29   21.97   -4.35   21.39   -2.15  -69.52
   9.610   -2.17  -65.99   -4.24   21.78   -4.28   21.12   -2.16  -69.77
   9.691   -2.24  -66.43   -4.21   21.10   -4.23   20.46   -2.18  -70.29
   9.773   -2.24  -66.59   -4.16   20.57   -4.18   20.15   -2.22  -70.29
   9.854   -2.28  -67.18   -4.16   19.87   -4.17   19.62   -2.31  -70.45
   9.936   -2.15  -67.06   -4.05   19.43   -4.16   19.22   -2.42  -70.98
  10.017   -2.28  -66.82   -4.05   19.52   -4.14   18.67   -2.35  -71.64
  10.099   -2.41  -67.43   -4.06   19.25   -4.07   18.40   -2.27  -71.66
  10.180   -2.46  -68.20   -4.05   18.52   -4.05   18.03   -2.26  -72.22
  10.262   -2.38  -68.44   -3.95   18.05   -3.97   17.79   -2.30  -72.77
  10.343   -2.40  -68.79   -3.92   17.78   -3.96   17.54   -2.44  -73.48
  10.425   -2.35  -69.34   -3.82   17.22   -3.92   16.97   -2.53  -74.20
  10.506   -2.48  -69.56   -3.76   17.15   -3.82   16.27   -2.47  -74.72
  10.588   -2.58  -70.27   -3.77   16.75   -3.79   16.22   -2.52  -74.49
  10.669   -2.66  -71.62   -3.74   15.81   -3.71   15.20   -2.52  -75.21
  10.751   -2.53  -71.69   -3.59   15.17   -3.66   15.32   -2.64  -75.41
  10.832   -2.69  -72.00   -3.60   14.93   -3.65   14.42   -2.67  -76.02
  10.914   -2.69  -72.51   -3.53   14.26   -3.61   13.66   -2.69  -76.89
  10.995   -2.76  -73.32   -3.52   13.94   -3.52   13.55   -2.70  -76.46
  11.077   -2.84  -73.79   -3.48   13.47   -3.53   12.82   -2.77  -77.41
  11.158   -2.82  -75.27   -3.43   12.35   -3.41   12.31   -2.82  -77.36
  11.240   -2.86  -75.19   -3.33   12.17   -3.40   11.90   -2.86  -78.07
  11.321   -2.97  -75.76   -3.31   11.54   -3.39   10.98   -2.90  -78.74
  11.403   -2.99  -77.05   -3.28   10.79   -3.26   10.43   -2.88  -78.75
  11.484   -3.07  -77.03   -3.21   10.37   -3.29    9.87   -2.93  -79.47
  11.566   -3.08  -78.32   -3.23    9.61   -3.20    9.35   -3.00  -79.48
  11.647   -3.11  -78.85   -3.15    9.01   -3.19    8.62   -3.03  -80.48
  11.729   -3.10  -79.24   -3.05    8.31   -3.14    8.36   -3.06  -80.98
  11.810   -3.27  -80.36   -3.08    8.07   -3.10    7.15   -3.05  -81.36
  11.892   -3.17  -81.35   -3.04    6.69   -3.04    6.88   -3.19  -81.94
  11.973   -3.25  -81.96   -2.96    6.48   -3.03    6.01   -3.16  -82.60
  12.055   -3.28  -82.82   -2.95    5.92   -2.97    5.55   -3.21  -82.88
  12.136   -3.30  -83.67   -2.94    4.96   -2.96    5.06   -3.32  -83.47
  12.218   -3.40  -84.47   -2.84    4.56   -2.96    3.91   -3.27  -84.21
  12.299   -3.40  -85.46   -2.86    4.10   -2.87    3.57   -3.34  -84.29
  12.381   -3.42  -86.44   -2.87    2.89   -2.85    2.92   -3.46  -85.06
  12.462   -3.48  -87.10   -2.74    2.24   -2.85    2.09   -3.42  -86.09
  12.544   -3.47  -87.89   -2.75    2.01   -2.74    1.76   -3.45  -85.95
  12.625   -3.59  -88.60   -2.71    1.24   -2.82    1.04   -3.53  -86.73
  12.707   -3.61  -89.80   -2.68    0.34   -2.75   -0.04   -3.55  -87.57
  12.788   -3.60  -90.18   -2.67    0.39   -2.65   -0.39   -3.58  -87.16
  12.870   -3.69  -91.11   -2.69   -1.15   -2.72   -0.97   -3.70  -88.70
  12.951   -3.64  -92.50   -2.58   -1.76   -2.62   -2.14   -3.62  -89.46
  13.033   -3.69  -92.70   -2.53   -2.05   -2.61   -2.18   -3.63  -89.52
  13.114   -3.77  -93.55   -2.61   -2.81   -2.63   -3.00   -3.76  -90.26
  13.196   -3.77  -94.94   -2.49   -3.49   -2.60   -4.26   -3.70  -91.01
  13.277   -3.76  -94.96   -2.56   -3.74   -2.54   -4.06   -3.80  -91.32
  13.359   -3.88  -96.13   -2.55   -4.85   -2.59   -5.10   -3.86  -92.50
  13.440   -3.83  -97.15   -2.43   -5.91   -2.48   -5.99   -3.79  -93.59
  13.522   -3.83  -97.39   -2.41   -5.77   -2.46   -6.18   -3.81  -93.38
  13.603   -3.94  -98.34   -2.44   -6.81   -2.51   -7.04   -3.93  -94.50
  13.685   -3.89  -99.00   -2.39   -7.54   -2.42   -7.76   -3.89  -95.31
  13.766   -3.94  -99.54   -2.39   -7.81   -2.48   -8.18   -3.96  -95.55
  13.848   -4.03 -100.08   -2.47   -8.82   -2.48   -9.06   -4.05  -96.77
  13.929   -3.97 -101.16   -2.35   -9.67   -2.38   -9.83   -4.00  -97.68
  14.011   -4.01 -101.36   -2.31   -9.71   -2.42   -9.75   -3.98  -97.53
  14.092   -4.00 -101.89   -2.38  -10.12   -2.38  -10.96   -4.16  -98.76
  14.174   -4.06 -102.33   -2.32  -11.26   -2.33  -11.05   -4.06  -99.42
  14.255   -4.06 -103.05   -2.30  -11.41   -2.38  -11.78   -4.15  -99.60
  14.337   -4.06 -103.40   -2.33  -12.05   -2.31  -12.56   -4.18 -100.84
  14.418   -4.12 -103.98   -2.27  -12.83   -2.29  -12.94   -4.13 -101.35
  14.500   -4.10 -104.75   -2.21  -13.28   -2.29  -13.48   -4.15 -101.59
  14.581   -4.08 -104.56   -2.21  -13.66   -2.23  -14.29   -4.20 -103.05
  14.663   -4.15 -105.09   -2.19  -14.71   -2.19  -14.70   -4.14 -104.05
  14.744   -4.08 -106.13   -2.14  -15.59   -2.20  -15.88   -4.26 -104.83
  14.826   -4.06 -106.33   -2.18  -16.16   -2.19  -16.60   -4.40 -105.66
  14.907   -4.10 -106.79   -2.22  -16.60   -2.22  -16.90   -4.44 -105.78
  14.989   -4.17 -108.07   -2.19  -17.38   -2.23  -17.49   -4.42 -106.02
  15.070   -4.19 -108.10   -2.20  -17.76   -2.20  -18.10   -4.46 -106.85
  15.152   -4.28 -108.80   -2.20  -18.43   -2.22  -18.71   -4.46 -107.48
  15.233   -4.30 -109.32   -2.20  -18.91   -2.26  -19.11   -4.50 -107.77
  15.315   -4.31 -108.79   -2.23  -19.07   -2.23  -19.60   -4.60 -108.98
  15.396   -4.37 -109.41   -2.24  -19.67   -2.24  -19.90   -4.59 -109.30
  15.478   -4.42 -109.75   -2.25  -20.09   -2.25  -20.19   -4.65 -109.58
  15.559   -4.36 -110.78   -2.25  -20.58   -2.29  -20.93   -4.78 -109.97
  15.641   -4.46 -110.73   -2.26  -20.54   -2.25  -20.69   -4.71 -109.66
  15.722   -4.41 -111.84   -2.18  -20.57   -2.24  -21.13   -4.79 -109.54
  15.804   -4.55 -111.90   -2.16  -20.96   -2.17  -21.35   -4.70 -110.20
  15.885   -4.66 -112.13   -2.13  -21.48   -2.12  -21.95   -4.67 -111.41
  15.967   -4.80 -113.09   -2.11  -22.27   -2.12  -22.18   -4.63 -111.04
  16.048   -4.80 -112.90   -2.08  -22.64   -2.10  -22.97   -4.74 -112.34
  16.130   -4.88 -112.82   -2.06  -22.93   -2.07  -23.23   -4.75 -112.76
  16.211   -4.99 -113.38   -2.07  -23.42   -2.09  -23.72   -4.81 -113.09
  16.293   -4.99 -113.33   -2.04  -23.78   -2.05  -24.05   -4.86 -113.64
  16.374   -5.07 -113.13   -2.03  -23.95   -2.03  -24.37   -4.93 -114.25
  16.456   -5.15 -113.65   -2.03  -24.45   -2.01  -24.60   -4.93 -114.40
  16.537   -5.17 -114.19   -1.99  -24.87   -1.98  -25.18   -5.02 -114.67
  16.619   -5.23 -114.82   -1.95  -25.20   -1.96  -25.37   -5.05 -114.49
  16.700   -5.34 -114.75   -1.96  -25.50   -1.97  -25.93   -5.16 -115.37
  16.782   -5.38 -115.78   -1.90  -26.12   -1.91  -26.15   -5.16 -114.97
  16.863   -5.46 -115.18   -1.88  -26.16   -1.89  -26.60   -5.25 -115.95
  16.945   -5.56 -115.71   -1.87  -26.52   -1.88  -27.02   -5.33 -116.40
  17.026   -5.81 -116.06   -1.88  -27.20   -1.82  -27.22   -5.28 -116.20
  17.108   -5.75 -116.71   -1.80  -27.52   -1.85  -27.60   -5.58 -116.42
  17.189   -5.90 -116.76   -1.81  -28.13   -1.82  -28.29   -5.63 -116.66
  17.271   -5.99 -116.46   -1.75  -28.44   -1.74  -28.66   -5.73 -117.03
  17.352   -6.05 -116.71   -1.74  -28.91   -1.79  -29.22   -5.95 -117.02
  17.434   -6.35 -116.00   -1.78  -29.31   -1.74  -29.77   -5.98 -117.45
  17.515   -6.40 -116.68   -1.77  -30.18   -1.77  -30.13   -6.20 -116.11
  17.597   -6.52 -116.15   -1.85  -30.70   -1.84  -30.54   -6.43 -115.11
  17.678   -6.44 -114.80   -1.90  -30.92   -1.90  -31.30   -6.51 -114.84
  17.760   -6.38 -114.58   -1.98  -30.55   -1.99  -30.70   -6.48 -112.87
  17.841   -6.26 -114.20   -1.98  -29.52   -1.98  -30.01   -6.33 -113.31
  17.923   -6.34 -116.37   -1.92  -29.57   -1.86  -29.68   -6.09 -113.25
  18.004   -6.35 -117.88   -1.79  -29.66   -1.77  -29.68   -6.23 -113.99
  18.086   -6.37 -118.52   -1.67  -30.02   -1.73  -30.08   -6.44 -114.81
  18.167   -6.65 -118.64   -1.65  -30.43   -1.63  -30.67   -6.43 -115.58
  18.249   -6.67 -118.99   -1.59  -30.91   -1.61  -31.14   -6.62 -115.74
  18.330   -6.85 -119.15   -1.57  -31.26   -1.57  -31.48   -6.69 -115.94
  18.412   -6.97 -120.01   -1.55  -31.83   -1.52  -31.81   -6.76 -115.55
  18.493   -7.02 -120.41   -1.52  -32.28   -1.54  -32.18   -7.01 -115.52
  18.575   -7.12 -120.00   -1.50  -32.44   -1.53  -32.70   -7.09 -116.20
  18.656   -7.28 -120.44   -1.51  -32.76   -1.52  -32.96   -7.17 -115.92
  18.738   -7.35 -120.98   -1.50  -32.98   -1.49  -33.07   -7.24 -115.79
  18.819   -7.46 -121.32   -1.47  -33.33   -1.46  -33.48   -7.32 -116.05
  18.901   -7.55 -122.06   -1.42  -33.59   -1.41  -33.55   -7.45 -115.71
  18.982   -7.63 -121.90   -1.38  -33.95   -1.41  -34.12   -7.60 -116.46
  19.064   -7.85 -122.02   -1.38  -34.15   -1.37  -34.43   -7.63 -116.44
  19.145   -7.96 -122.69   -1.38  -34.65   -1.36  -34.82   -7.69 -116.25
  19.227   -8.03 -122.90   -1.36  -34.96   -1.35  -34.98   -7.81 -116.25
  19.308   -8.06 -123.06   -1.31  -35.21   -1.32  -35.38   -7.84 -117.02
  19.390   -8.14 -123.69   -1.29  -35.46   -1.29  -35.53   -7.96 -117.12
  19.471   -8.20 -123.84   -1.23  -35.81   -1.27  -36.00   -8.05 -118.33
  19.553   -8.38 -124.87   -1.22  -36.10   -1.22  -36.37   -8.10 -118.12
  19.634   -8.48 -125.83   -1.20  -36.54   -1.20  -36.74   -8.23 -118.65
  19.716   -8.51 -126.62   -1.16  -37.07   -1.17  -36.99   -8.41 -118.78
  19.797   -8.69 -126.95   -1.12  -37.42   -1.13  -37.58   -8.48 -119.48
  19.879   -8.74 -127.40   -1.09  -37.91   -1.12  -37.92   -8.63 -119.92
  19.960   -8.93 -127.86   -1.08  -38.23   -1.10  -38.47   -8.68 -120.42
  20.042   -9.00 -128.81   -1.08  -38.74   -1.06  -38.96   -8.77 -120.58
  20.123   -9.05 -129.79   -1.09  -39.28   -1.07  -39.35   -8.93 -120.87
  20.205   -9.08 -130.32   -1.04  -39.67   -1.04  -39.79   -9.02 -121.73
  20.286   -9.16 -131.19   -1.02  -40.07   -1.02  -40.02   -9.13 -122.02
  20.368   -9.27 -132.00   -1.00  -40.38   -1.02  -40.48   -9.24 -122.81
  20.449   -9.42 -132.78   -0.99  -40.84   -1.00  -41.02   -9.31 -123.10
  20.531   -9.46 -134.45   -0.98  -41.30   -0.94  -41.51   -9.43 -123.15
  20.612   -9.51 -134.80   -0.95  -41.91   -0.95  -41.86   -9.56 -123.74
  20.694   -9.64 -135.68   -0.91  -42.42   -0.92  -42.52   -9.62 -124.38
  20.775   -9.68 -136.37   -0.90  -42.83   -0.91  -42.92   -9.73 -124.75
  20.857   -9.84 -136.92   -0.89  -43.30   -0.92  -43.41   -9.84 -125.14
  20.938   -9.92 -137.84   -0.90  -43.84   -0.90  -44.07   -9.86 -125.22
  21.020   -9.91 -139.15   -0.89  -44.43   -0.86  -44.57   -9.98 -125.04
  21.101   -9.92 -139.16   -0.86  -44.98   -0.89  -44.76  -10.05 -125.69
  21.183  -10.04 -140.05   -0.85  -45.27   -0.84  -45.48   -9.98 -125.64
  21.264   -9.99 -140.32   -0.84  -45.70   -0.85  -45.65  -10.03 -126.49
  21.346  -10.06 -140.70   -0.87  -46.20   -0.88  -46.35  -10.02 -126.82
  21.427  -10.04 -142.03   -0.85  -46.63   -0.84  -47.08   -9.96 -127.67
  21.509   -9.93 -142.70   -0.87  -47.29   -0.83  -47.16  -10.07 -127.96
  21.590  -10.02 -143.85   -0.82  -47.83   -0.84  -48.06  -10.03 -129.39
  21.672   -9.92 -144.32   -0.81  -48.19   -0.80  -48.30  -10.03 -129.76
