!  American Technical Ceramics  Date:   4/26/2005
!  One Norden Lane
!  Huntington Station,  NY.   11746-2102
!  Tel:  (631) 622-4700               Fax:  (631) 622-4748
!  Part Number  600S0R2         Mounting Orientation: Horizontal
!  Description: Ultra Low ESR Microwave capacitors
!  Application: Coupling, Bypass, Tuning, DC Block
!               Filters, Matching
# GHZ S DB R 50
! Freq   |S11|   S11 Ph  |S21|   S21 Ph  |S12|   S12 Ph  |S22|   S22 Ph
   0.000   0.00    0.00	  -999.00  90.00  -999.00  90.00    0.00    0.00
   0.400   -0.01   -3.14  -28.74   86.37  -28.65   86.16   -0.01   -3.49
   0.482   -0.01   -3.80  -27.11   85.08  -27.05   84.24   -0.05   -4.99
   0.563   -0.01   -4.01  -25.76   84.52  -25.72   83.33   -0.08   -6.33
   0.645   -0.01   -4.28  -24.60   84.07  -24.53   82.73    0.00   -7.17
   0.726   -0.08   -5.29  -23.63   83.35  -23.52   82.12   -0.01   -7.71
   0.808   -0.01   -5.82  -22.63   82.67  -22.57   81.57   -0.01   -8.41
   0.889   -0.08   -6.65  -21.87   82.21  -21.75   81.10   -0.01   -8.77
   0.971   -0.01   -7.34  -21.06   81.42  -21.06   80.31   -0.12   -9.71
   1.052   -0.02   -7.82  -20.38   80.99  -20.33   79.67   -0.05  -10.45
   1.134   -0.05   -8.20  -19.77   80.62  -19.73   79.10   -0.10  -11.17
   1.215   -0.09   -9.87  -19.22   79.36  -19.16   78.18   -0.11  -11.70
   1.297   -0.01  -10.08  -18.59   78.92  -18.56   77.63   -0.10  -12.47
   1.378   -0.07  -10.85  -18.12   78.28  -18.08   77.21   -0.14  -12.72
   1.460   -0.03  -11.57  -17.59   77.52  -17.61   76.15   -0.19  -13.95
   1.541   -0.07  -12.07  -17.09   77.17  -17.07   75.64   -0.10  -14.31
   1.623   -0.12  -12.71  -16.70   76.72  -16.69   75.33   -0.16  -14.64
   1.704   -0.15  -13.60  -16.31   75.74  -16.26   74.48   -0.12  -14.56
   1.786   -0.07  -14.54  -15.83   75.32  -15.86   74.08   -0.20  -15.73
   1.867   -0.16  -15.25  -15.50   74.77  -15.52   73.42   -0.23  -16.29
   1.949   -0.16  -16.10  -15.12   73.89  -15.14   72.30   -0.20  -17.42
   2.030   -0.15  -17.10  -14.76   73.13  -14.75   72.04   -0.20  -17.30
   2.112   -0.20  -17.70  -14.43   72.57  -14.45   71.14   -0.22  -18.26
   2.193   -0.19  -18.78  -14.09   71.68  -14.09   70.60   -0.21  -18.58
   2.275   -0.20  -19.30  -13.75   71.27  -13.78   70.19   -0.23  -18.99
   2.356   -0.26  -19.99  -13.47   70.74  -13.54   69.40   -0.28  -19.81
   2.438   -0.30  -21.21  -13.21   69.82  -13.21   68.65   -0.27  -20.17
   2.519   -0.29  -22.10  -12.92   69.03  -12.92   68.01   -0.27  -20.74
   2.601   -0.28  -22.87  -12.60   68.14  -12.67   67.37   -0.32  -21.39
   2.682   -0.34  -23.60  -12.34   67.67  -12.36   66.55   -0.25  -21.94
   2.764   -0.35  -24.29  -12.07   66.79  -12.13   66.09   -0.33  -22.42
   2.845   -0.38  -25.26  -11.81   65.96  -11.84   65.14   -0.31  -23.24
   2.927   -0.41  -25.97  -11.55   65.14  -11.63   64.29   -0.35  -23.86
   3.008   -0.45  -27.26  -11.35   64.04  -11.35   63.54   -0.37  -24.19
   3.090   -0.38  -27.48  -11.14   63.48  -11.24   63.07   -0.45  -25.06
   3.171   -0.42  -28.10  -10.96   63.07  -10.99   62.39   -0.42  -25.39
   3.253   -0.45  -28.86  -10.78   62.16  -10.83   61.99   -0.50  -26.00
   3.334   -0.45  -29.42  -10.56   61.60  -10.63   61.21   -0.46  -26.76
   3.416   -0.47  -29.97  -10.37   61.09  -10.42   60.54   -0.46  -27.27
   3.497   -0.50  -30.75  -10.24   60.32  -10.21   60.24   -0.51  -27.69
   3.579   -0.50  -31.39   -9.98   59.50  -10.08   59.48   -0.54  -28.71
   3.660   -0.51  -31.93   -9.84   59.19   -9.84   58.97   -0.52  -29.00
   3.742   -0.57  -32.66   -9.70   58.16   -9.75   58.38   -0.61  -29.81
   3.823   -0.55  -33.45   -9.50   57.48   -9.55   57.55   -0.58  -30.63
   3.905   -0.56  -33.93   -9.34   57.17   -9.37   57.06   -0.58  -31.06
   3.986   -0.61  -34.51   -9.24   56.46   -9.23   56.72   -0.65  -31.58
   4.068   -0.61  -35.31   -9.03   55.66   -9.06   55.97   -0.64  -32.53
   4.149   -0.63  -35.51   -8.89   55.55   -8.91   55.64   -0.69  -32.66
   4.231   -0.70  -36.58   -8.79   54.27   -8.80   54.75   -0.77  -33.70
   4.312   -0.64  -37.33   -8.54   53.82   -8.56   54.09   -0.68  -34.25
   4.394   -0.66  -37.60   -8.40   53.50   -8.43   53.82   -0.71  -34.46
   4.475   -0.72  -38.29   -8.33   52.80   -8.31   53.03   -0.78  -35.15
   4.557   -0.71  -39.10   -8.13   51.92   -8.15   52.44   -0.74  -35.95
   4.638   -0.75  -39.46   -8.03   51.81   -8.04   52.01   -0.81  -36.16
   4.720   -0.84  -40.76   -7.94   50.16   -7.93   50.55   -0.85  -37.43
   4.801   -0.76  -41.23   -7.74   49.80   -7.72   50.26   -0.79  -37.84
   4.883   -0.83  -41.50   -7.65   49.57   -7.68   50.07   -0.86  -37.84
   4.964   -0.86  -42.26   -7.58   48.91   -7.53   48.98   -0.94  -38.85
   5.046   -0.89  -43.11   -7.41   47.94   -7.41   48.65   -0.89  -39.27
   5.127   -0.91  -43.55   -7.36   47.70   -7.35   47.87   -0.99  -39.73
   5.209   -0.95  -44.64   -7.22   46.52   -7.19   46.83   -0.98  -40.82
   5.290   -0.95  -44.97   -7.06   46.14   -7.03   46.81   -0.94  -40.95
   5.372   -0.99  -45.65   -6.98   45.93   -7.01   46.11   -1.06  -41.06
   5.453   -1.06  -46.18   -6.93   44.96   -6.85   45.32   -1.05  -42.32
   5.535   -1.10  -47.20   -6.78   44.37   -6.80   44.90   -1.07  -42.33
   5.616   -1.09  -47.91   -6.69   43.82   -6.70   43.88   -1.15  -43.18
   5.698   -1.14  -48.49   -6.58   42.92   -6.53   43.32   -1.09  -43.90
   5.779   -1.13  -48.99   -6.44   42.85   -6.46   43.07   -1.14  -43.74
   5.861   -1.23  -49.57   -6.42   42.06   -6.39   42.29   -1.19  -44.61
   5.942   -1.29  -50.14   -6.34   41.37   -6.28   41.68   -1.22  -45.18
   6.024   -1.31  -51.76   -6.19   40.34   -6.26   40.98   -1.25  -45.26
   6.105   -1.29  -51.56   -6.12   40.09   -6.08   39.94   -1.29  -46.45
   6.187   -1.35  -52.60   -5.99   39.24   -6.02   39.82   -1.27  -46.13
   6.268   -1.36  -52.39   -5.97   39.17   -5.90   39.11   -1.34  -47.05
   6.350   -1.48  -53.32   -5.91   38.22   -5.83   38.66   -1.32  -47.36
   6.431   -1.54  -54.53   -5.83   37.33   -5.80   37.99   -1.34  -47.55
   6.513   -1.46  -55.32   -5.69   36.77   -5.67   36.66   -1.38  -48.76
   6.594   -1.46  -55.44   -5.61   36.58   -5.57   36.23   -1.40  -49.09
   6.676   -1.54  -56.06   -5.55   35.97   -5.52   35.70   -1.46  -49.65
   6.757   -1.55  -55.96   -5.50   35.84   -5.44   35.05   -1.54  -50.66
   6.839   -1.75  -57.71   -5.45   34.35   -5.44   34.93   -1.48  -50.15
   6.920   -1.59  -58.38   -5.34   33.99   -5.42   33.42   -1.68  -51.51
   7.002   -1.57  -59.12   -5.21   33.39   -5.31   33.25   -1.66  -51.43
   7.083   -1.59  -58.84   -5.17   33.45   -5.21   32.59   -1.73  -52.60
   7.165   -1.65  -59.52   -5.10   32.99   -5.14   32.41   -1.73  -52.64
   7.246   -1.84  -60.21   -5.10   32.24   -5.08   32.24   -1.67  -53.09
   7.328   -1.82  -61.89   -4.97   31.40   -5.07   31.71   -1.79  -52.94
   7.409   -1.68  -62.59   -4.82   30.91   -5.02   30.78   -1.95  -53.64
   7.491   -1.76  -62.20   -4.77   30.70   -4.85   30.08   -1.91  -55.01
   7.572   -1.77  -62.57   -4.69   30.36   -4.78   29.56   -1.98  -55.57
   7.654   -2.00  -63.43   -4.71   29.36   -4.68   29.36   -1.84  -55.83
   7.735   -1.93  -64.01   -4.58   29.12   -4.65   28.92   -2.02  -56.07
   7.817   -2.00  -65.96   -4.51   27.78   -4.61   28.39   -2.07  -55.83
   7.898   -1.84  -65.10   -4.37   27.94   -4.53   27.11   -2.25  -57.76
   7.980   -1.99  -65.64   -4.34   27.40   -4.42   27.00   -2.18  -57.89
   8.061   -2.17  -66.01   -4.34   26.92   -4.33   26.20   -2.14  -59.13
   8.143   -2.15  -67.74   -4.21   25.82   -4.26   25.97   -2.19  -58.37
   8.224   -2.15  -68.03   -4.16   25.45   -4.26   25.42   -2.34  -58.97
   8.306   -2.17  -68.27   -4.08   24.93   -4.18   24.48   -2.39  -60.15
   8.387   -2.23  -69.40   -4.00   24.07   -4.11   23.74   -2.46  -60.37
   8.469   -2.38  -69.37   -3.99   23.80   -4.03   23.05   -2.44  -61.53
   8.550   -2.40  -70.70   -3.91   22.90   -3.94   22.56   -2.42  -61.70
   8.632   -2.44  -71.86   -3.85   22.26   -3.88   22.40   -2.48  -61.47
   8.713   -2.34  -71.48   -3.72   22.20   -3.85   21.58   -2.65  -63.03
   8.795   -2.42  -72.65   -3.70   21.56   -3.74   21.17   -2.48  -63.49
   8.876   -2.53  -73.09   -3.59   21.02   -3.66   20.46   -2.67  -64.23
   8.958   -2.64  -73.82   -3.56   20.24   -3.61   19.75   -2.77  -64.72
   9.039   -2.72  -74.30   -3.48   19.44   -3.50   19.20   -2.73  -65.00
   9.121   -2.72  -74.55   -3.42   19.03   -3.49   18.79   -2.87  -65.34
   9.202   -2.77  -75.35   -3.36   18.29   -3.40   17.96   -2.88  -66.15
   9.284   -2.78  -75.83   -3.31   17.74   -3.35   17.48   -2.92  -66.44
   9.365   -2.78  -76.84   -3.24   17.00   -3.31   16.95   -3.03  -66.44
   9.447   -2.92  -77.38   -3.22   16.52   -3.26   16.15   -3.04  -67.37
   9.528   -3.05  -77.68   -3.16   16.00   -3.17   15.68   -2.97  -67.62
   9.610   -3.12  -78.60   -3.13   15.25   -3.13   15.27   -3.02  -67.88
   9.691   -3.14  -79.33   -3.05   14.55   -3.07   14.59   -3.08  -68.93
   9.773   -3.17  -79.41   -3.01   14.06   -3.04   14.12   -3.11  -69.44
   9.854   -3.16  -79.76   -2.93   13.47   -2.99   13.46   -3.22  -70.48
   9.936   -3.26  -79.42   -2.89   13.40   -2.93   12.83   -3.19  -71.19
  10.017   -3.36  -81.04   -2.90   12.42   -2.84   12.33   -3.19  -71.42
  10.099   -3.30  -81.98   -2.83   11.62   -2.81   11.97   -3.32  -71.64
  10.180   -3.25  -82.29   -2.71   11.13   -2.74   11.41   -3.38  -72.67
  10.262   -3.36  -82.48   -2.70   10.84   -2.73   10.93   -3.45  -73.17
  10.343   -3.41  -83.22   -2.63   10.12   -2.67   10.17   -3.46  -74.03
  10.425   -3.52  -83.65   -2.60    9.72   -2.59    9.58   -3.47  -74.63
  10.506   -3.57  -84.92   -2.61    8.93   -2.54    9.21   -3.56  -74.61
  10.588   -3.55  -85.58   -2.51    8.06   -2.51    8.40   -3.68  -75.75
  10.669   -3.57  -85.81   -2.41    7.82   -2.44    8.31   -3.69  -76.00
  10.751   -3.78  -85.86   -2.44    7.54   -2.46    7.31   -3.74  -77.11
  10.832   -3.76  -86.89   -2.38    6.59   -2.37    6.87   -3.78  -77.25
  10.914   -3.83  -87.43   -2.36    6.29   -2.32    6.63   -3.83  -77.47
  10.995   -3.84  -87.88   -2.28    5.52   -2.32    5.86   -3.95  -78.62
  11.077   -3.89  -88.83   -2.22    4.85   -2.19    5.29   -3.92  -79.00
  11.158   -3.98  -88.74   -2.16    4.61   -2.21    4.73   -3.99  -79.81
  11.240   -4.08  -89.81   -2.18    3.77   -2.16    3.92   -4.03  -80.33
  11.321   -4.09  -90.42   -2.12    3.18   -2.07    3.50   -4.06  -80.68
  11.403   -4.14  -90.56   -2.09    2.61   -2.11    2.93   -4.19  -81.61
  11.484   -4.21  -91.40   -2.08    1.87   -2.04    2.22   -4.22  -81.93
  11.566   -4.27  -91.43   -2.01    1.41   -2.05    1.65   -4.26  -82.88
  11.647   -4.31  -92.21   -2.01    0.89   -1.99    1.20   -4.30  -83.00
  11.729   -4.41  -93.10   -2.01    0.35   -1.95    0.48   -4.35  -83.57
  11.810   -4.34  -93.34   -1.92   -0.46   -1.91    0.30   -4.45  -84.27
  11.892   -4.53  -93.71   -1.93   -0.52   -1.91   -0.55   -4.45  -84.66
  11.973   -4.50  -94.56   -1.92   -1.43   -1.88   -1.01   -4.54  -85.28
  12.055   -4.57  -95.06   -1.88   -2.01   -1.88   -1.71   -4.59  -86.10
  12.136   -4.65  -95.60   -1.84   -2.25   -1.82   -2.24   -4.60  -86.43
  12.218   -4.63  -96.25   -1.84   -3.19   -1.80   -2.55   -4.75  -87.09
  12.299   -4.72  -96.61   -1.77   -3.52   -1.79   -3.19   -4.73  -87.78
  12.381   -4.81  -97.36   -1.75   -3.77   -1.75   -3.87   -4.79  -88.09
  12.462   -4.82  -98.12   -1.81   -4.69   -1.73   -4.18   -4.93  -88.67
  12.544   -4.92  -98.73   -1.71   -5.23   -1.73   -5.09   -4.90  -89.52
  12.625   -4.89  -99.25   -1.68   -5.72   -1.63   -5.33   -4.97  -89.86
  12.707   -5.00  -99.70   -1.70   -6.20   -1.68   -5.73   -5.08  -90.45
  12.788   -5.08 -100.54   -1.60   -6.87   -1.68   -6.72   -5.02  -91.26
  12.870   -5.09 -101.04   -1.66   -6.78   -1.59   -6.82   -5.18  -90.95
  12.951   -5.20 -101.65   -1.63   -7.85   -1.65   -7.52   -5.26  -92.26
  13.033   -5.22 -102.40   -1.57   -8.65   -1.55   -8.26   -5.23  -92.75
  13.114   -5.26 -102.84   -1.54   -8.61   -1.53   -8.47   -5.32  -92.66
  13.196   -5.38 -103.25   -1.52   -9.64   -1.56   -8.91   -5.35  -93.80
  13.277   -5.38 -104.30   -1.46   -9.70   -1.48   -9.91   -5.39  -93.56
  13.359   -5.45 -104.29   -1.49  -10.12   -1.49   -9.90   -5.48  -94.17
  13.440   -5.60 -105.26   -1.52  -11.24   -1.52  -10.90   -5.57  -95.30
  13.522   -5.56 -105.99   -1.39  -11.61   -1.43  -11.46   -5.51  -95.40
  13.603   -5.62 -106.10   -1.42  -11.98   -1.46  -11.69   -5.59  -95.94
  13.685   -5.71 -107.20   -1.40  -12.61   -1.42  -12.47   -5.69  -96.44
  13.766   -5.74 -107.40   -1.33  -12.89   -1.39  -12.62   -5.69  -96.68
  13.848   -5.84 -107.72   -1.40  -13.25   -1.40  -13.14   -5.86  -97.34
  13.929   -5.94 -108.85   -1.37  -14.28   -1.39  -13.99   -5.89  -98.08
  14.011   -5.96 -109.15   -1.28  -14.65   -1.33  -14.18   -5.88  -98.53
  14.092   -6.03 -109.78   -1.29  -14.68   -1.36  -14.91   -6.07  -98.37
  14.174   -6.09 -109.93   -1.28  -15.68   -1.27  -15.49   -6.06  -99.78
  14.255   -6.15 -110.39   -1.24  -15.96   -1.30  -15.85   -6.15  -99.69
  14.337   -6.13 -110.93   -1.25  -16.47   -1.29  -16.58   -6.28 -100.28
  14.418   -6.21 -111.58   -1.26  -17.30   -1.27  -16.98   -6.34 -100.89
  14.500   -6.27 -112.37   -1.22  -17.58   -1.29  -17.31   -6.39 -100.65
  14.581   -6.29 -113.05   -1.21  -17.82   -1.26  -18.02   -6.55 -101.13
  14.663   -6.45 -113.31   -1.23  -18.48   -1.23  -18.25   -6.50 -101.99
  14.744   -6.53 -114.49   -1.18  -18.99   -1.25  -18.94   -6.62 -102.08
  14.826   -6.55 -114.69   -1.17  -19.34   -1.21  -19.57   -6.72 -102.77
  14.907   -6.65 -114.74   -1.18  -19.70   -1.20  -19.75   -6.78 -103.21
  14.989   -6.77 -115.46   -1.15  -20.27   -1.20  -20.10   -6.82 -103.32
  15.070   -6.78 -115.44   -1.14  -20.59   -1.17  -20.68   -6.95 -103.93
  15.152   -6.86 -116.12   -1.11  -21.15   -1.16  -21.10   -7.02 -104.36
  15.233   -6.88 -117.13   -1.08  -21.60   -1.15  -21.40   -7.05 -104.23
  15.315   -6.92 -117.19   -1.09  -21.89   -1.10  -22.13   -7.17 -105.43
  15.396   -7.05 -118.09   -1.07  -22.52   -1.09  -22.44   -7.14 -105.82
  15.478   -7.17 -118.78   -1.06  -23.00   -1.08  -22.85   -7.23 -106.24
  15.559   -7.16 -119.99   -1.01  -23.54   -1.07  -23.60   -7.34 -107.09
  15.641   -7.34 -120.29   -1.01  -24.01   -1.03  -23.74   -7.38 -107.30
  15.722   -7.37 -121.06   -0.99  -24.34   -1.06  -24.34   -7.62 -108.09
  15.804   -7.56 -121.55   -1.00  -24.87   -1.02  -24.80   -7.64 -108.58
  15.885   -7.72 -122.12   -0.99  -25.43   -0.98  -25.37   -7.74 -109.54
  15.967   -7.87 -123.63   -0.95  -26.01   -1.00  -25.58   -7.82 -109.01
  16.048   -7.95 -123.48   -0.93  -26.33   -0.94  -26.23   -7.98 -110.12
  16.130   -8.13 -123.87   -0.92  -26.72   -0.94  -26.56   -8.08 -110.55
  16.211   -8.25 -124.88   -0.91  -27.30   -0.95  -27.05   -8.27 -110.65
  16.293   -8.36 -125.08   -0.88  -27.72   -0.92  -27.52   -8.40 -111.28
  16.374   -8.54 -125.62   -0.88  -28.22   -0.90  -27.81   -8.50 -111.19
  16.456   -8.70 -126.67   -0.86  -28.80   -0.88  -28.24   -8.63 -111.16
  16.537   -8.83 -127.06   -0.84  -29.26   -0.84  -28.72   -8.73 -111.23
  16.619   -8.99 -127.77   -0.82  -29.74   -0.83  -29.15   -8.87 -111.53
  16.700   -9.23 -128.12   -0.82  -30.31   -0.79  -30.02   -8.94 -112.50
  16.782   -9.29 -128.65   -0.78  -30.75   -0.78  -30.20   -9.19 -112.44
  16.863   -9.56 -128.79   -0.80  -31.21   -0.78  -30.83   -9.29 -113.23
  16.945   -9.71 -129.30   -0.79  -31.70   -0.77  -31.13   -9.54 -113.19
  17.026   -9.85 -130.51   -0.75  -32.40   -0.77  -31.46   -9.73 -112.38
  17.108   -9.94 -129.87   -0.74  -32.77   -0.74  -32.19  -10.01 -112.71
  17.189  -10.10 -130.47   -0.71  -33.49   -0.69  -32.70  -10.14 -113.04
  17.271  -10.41 -130.86   -0.74  -33.98   -0.68  -33.18  -10.22 -112.08
  17.352  -10.63 -130.49   -0.75  -34.53   -0.69  -33.97  -10.56 -112.60
  17.434  -10.89 -131.24   -0.76  -35.28   -0.68  -34.43  -10.63 -110.82
  17.515  -10.89 -129.96   -0.79  -35.77   -0.76  -35.11  -11.05 -109.83
  17.597  -10.89 -128.78   -0.82  -36.26   -0.81  -35.68  -11.10 -108.97
  17.678  -10.95 -128.05   -0.92  -36.27   -0.84  -35.55  -10.88 -106.31
  17.760  -10.67 -128.04   -0.93  -35.96   -0.87  -35.29  -10.76 -106.62
  17.841  -10.68 -130.41   -0.88  -35.95   -0.77  -35.23  -10.39 -106.97
  17.923  -10.59 -132.86   -0.76  -36.26   -0.70  -35.41  -10.71 -108.77
  18.004  -10.82 -133.94   -0.70  -36.66   -0.62  -36.12  -10.72 -110.77
  18.086  -11.20 -134.94   -0.65  -37.14   -0.57  -36.92  -10.98 -111.77
  18.167  -11.38 -136.87   -0.62  -38.09   -0.54  -37.47  -11.25 -111.89
  18.249  -11.71 -136.63   -0.64  -38.67   -0.55  -38.32  -11.54 -111.23
  18.330  -11.88 -136.65   -0.65  -39.39   -0.55  -38.86  -11.76 -110.68
  18.412  -11.93 -135.95   -0.67  -39.83   -0.59  -39.32  -11.92 -109.50
  18.493  -12.11 -135.34   -0.68  -39.98   -0.58  -39.81  -11.91 -109.82
  18.575  -12.18 -136.55   -0.69  -40.42   -0.56  -40.09  -11.75 -108.84
  18.656  -12.23 -137.29   -0.66  -40.72   -0.56  -40.46  -11.94 -109.23
  18.738  -12.29 -137.72   -0.64  -41.06   -0.54  -40.85  -11.87 -110.00
  18.819  -12.38 -138.78   -0.62  -41.34   -0.53  -41.18  -12.00 -110.04
  18.901  -12.42 -139.21   -0.60  -41.69   -0.53  -41.62  -12.03 -111.62
  18.982  -12.62 -140.65   -0.57  -42.11   -0.46  -42.02  -12.06 -111.62
  19.064  -12.68 -141.74   -0.53  -42.69   -0.44  -42.46  -12.29 -113.08
  19.145  -12.89 -142.14   -0.48  -43.19   -0.40  -43.07  -12.38 -113.70
  19.227  -13.13 -142.74   -0.46  -43.71   -0.38  -43.68  -12.61 -114.94
  19.308  -13.33 -143.62   -0.46  -44.24   -0.37  -44.27  -12.68 -115.07
  19.390  -13.49 -143.69   -0.45  -44.79   -0.37  -44.98  -12.94 -115.79
  19.471  -13.60 -144.61   -0.45  -45.31   -0.37  -45.29  -13.03 -116.08
  19.553  -13.62 -144.25   -0.44  -45.76   -0.38  -45.87  -13.27 -117.01
  19.634  -13.76 -144.65   -0.42  -46.12   -0.38  -46.18  -13.39 -118.00
  19.716  -13.94 -145.29   -0.41  -46.44   -0.34  -46.61  -13.49 -117.58
  19.797  -13.96 -146.05   -0.39  -47.02   -0.32  -47.01  -13.77 -118.45
  19.879  -14.13 -146.96   -0.37  -47.57   -0.30  -47.67  -13.77 -118.65
  19.960  -14.17 -147.36   -0.34  -48.02   -0.28  -48.03  -14.06 -119.31
  20.042  -14.29 -148.01   -0.32  -48.55   -0.27  -48.72  -14.08 -120.18
  20.123  -14.43 -148.74   -0.31  -48.93   -0.26  -49.28  -14.20 -120.14
  20.205  -14.46 -149.95   -0.30  -49.60   -0.25  -49.60  -14.35 -121.12
  20.286  -14.58 -150.72   -0.28  -50.13   -0.24  -50.29  -14.47 -121.67
  20.368  -14.64 -151.42   -0.26  -50.75   -0.22  -50.84  -14.62 -122.85
  20.449  -14.78 -152.45   -0.25  -51.21   -0.22  -51.26  -14.80 -123.47
  20.531  -14.94 -153.26   -0.24  -51.75   -0.20  -51.97  -14.90 -124.66
  20.612  -15.06 -154.73   -0.25  -52.34   -0.20  -52.63  -15.10 -124.71
  20.694  -15.13 -155.39   -0.24  -52.98   -0.20  -53.16  -15.32 -125.93
  20.775  -15.25 -156.47   -0.24  -53.52   -0.20  -53.62  -15.36 -126.45
  20.857  -15.36 -157.28   -0.23  -53.97   -0.21  -54.00  -15.63 -126.99
  20.938  -15.48 -158.19   -0.24  -54.51   -0.21  -54.74  -15.74 -128.25
  21.020  -15.67 -159.28   -0.25  -54.98   -0.21  -55.13  -15.89 -128.24
  21.101  -15.73 -160.53   -0.25  -55.63   -0.22  -55.80  -16.11 -129.29
  21.183  -15.90 -161.09   -0.26  -56.10   -0.23  -56.29  -16.16 -129.91
  21.264  -15.97 -162.40   -0.25  -56.59   -0.21  -56.69  -16.29 -131.08
  21.346  -16.08 -163.40   -0.29  -57.02   -0.25  -57.11  -16.38 -132.12
  21.427  -16.23 -164.41   -0.29  -57.52   -0.27  -57.64  -16.62 -134.44
  21.509  -16.32 -166.21   -0.32  -57.82   -0.27  -58.04  -16.84 -134.72
  21.590  -16.46 -166.55   -0.31  -58.27   -0.30  -58.35  -17.23 -136.29
  21.672  -16.67 -168.38   -0.29  -58.65   -0.26  -58.87  -17.33 -136.79
